HEADER
"PSFversion" "1.00"
"simulator" "spectre"
"version" "10.1.1.128.isr9"
"date" "7:26:28 PM, Fri May 15, 2015"
"design" "// Generated by PySpectre"
"analysis type" "dc"
"analysis name" "dc"
"analysis description" "DC Analysis `dc': RL = (1 -> 100)"
"xVecSorted" "unsorted"
"tolerance.relative" 0.00100000
"reltol" 0.00100000
"abstol(V)" 1.00000e-06
"abstol(I)" 1.00000e-12
"temp" 27.0000
"tnom" 27.0000
"tempeffects" "all"
"gmindc" 1.00000e-12
TYPE
"sweep" FLOAT DOUBLE PROP(
"key" "sweep"
)
"V" FLOAT DOUBLE PROP(
"units" "V"
"key" "node"
"tolerance" 1.00000e-06
)
"I" FLOAT DOUBLE PROP(
"units" "A"
"key" "branch"
"tolerance" 1.00000e-12
)
"MMF" FLOAT DOUBLE PROP(
"units" "A*turn"
"key" "node"
"tolerance" 1.00000e-12
)
"Wb" FLOAT DOUBLE PROP(
"units" "Wb"
"key" "node"
"tolerance" 1.00000e-09
)
"Temp" FLOAT DOUBLE PROP(
"units" "C"
"key" "node"
"tolerance" 0.000100000
)
"Pwr" FLOAT DOUBLE PROP(
"units" "W"
"key" "node"
"tolerance" 1.00000e-09
)
"U" FLOAT DOUBLE PROP(
"units" ""
"key" "node"
"tolerance" 1.00000e-06
)
"V/Sec" FLOAT DOUBLE PROP(
"units" "V/s"
"key" "node"
"tolerance" 0.000100000
)
"I/Sec" FLOAT DOUBLE PROP(
"units" "A/s"
"key" "node"
"tolerance" 1.00000e-06
)
"1/Sec" FLOAT DOUBLE PROP(
"units" "1/s"
"key" "node"
"tolerance" 0.000100000
)
"HOD" FLOAT DOUBLE PROP(
"units" ""
"key" "node"
"tolerance" 0.0100000
)
SWEEP
"RL" "sweep" PROP(
"sweep_direction" 0
"plot" 0
"grid" 3
)
TRACE
"gnd!" "V"
"PORT1:p" "I"
"V0:p" "I"
"VG" "V"
"VI" "V"
"VNOISE" "V"
"VO1" "V"
"VO2" "V"
"I1.net7" "V"
VALUE
"RL" 1.000000000000000e+00
"gnd!" 0.000000000000000e+00
"PORT1:p" -3.921568627450980e-02
"V0:p" 0.000000000000000e+00
"VG" 5.647530031723104e-01
"VI" 0.000000000000000e+00
"VNOISE" 3.921568627450980e-02
"VO1" 0.000000000000000e+00
"VO2" 0.000000000000000e+00
"I1.net7" 0.000000000000000e+00
"RL" 1.232846739442066e+00
"gnd!" 0.000000000000000e+00
"PORT1:p" -3.903745599325212e-02
"V0:p" 0.000000000000000e+00
"VG" 5.647286163704088e-01
"VI" 0.000000000000000e+00
"VNOISE" 4.812720033739402e-02
"VO1" 0.000000000000000e+00
"VO2" 0.000000000000000e+00
"I1.net7" 0.000000000000000e+00
"RL" 1.519911082952934e+00
"gnd!" 0.000000000000000e+00
"PORT1:p" -3.881994277474143e-02
"V0:p" 0.000000000000000e+00
"VG" 5.647286163704089e-01
"VI" 0.000000000000000e+00
"VNOISE" 5.900286126292818e-02
"VO1" 0.000000000000000e+00
"VO2" 0.000000000000000e+00
"I1.net7" 0.000000000000000e+00
"RL" 1.873817422860384e+00
"gnd!" 0.000000000000000e+00
"PORT1:p" -3.855509579517886e-02
"V0:p" 0.000000000000000e+00
"VG" 5.647286163704089e-01
"VI" 0.000000000000000e+00
"VNOISE" 7.224521024105726e-02
"VO1" 0.000000000000000e+00
"VO2" 0.000000000000000e+00
"I1.net7" 0.000000000000000e+00
"RL" 2.310129700083160e+00
"gnd!" 0.000000000000000e+00
"PORT1:p" -3.823351254273072e-02
"V0:p" 0.000000000000000e+00
"VG" 5.647286163704089e-01
"VI" 0.000000000000000e+00
"VNOISE" 8.832437286346423e-02
"VO1" 0.000000000000000e+00
"VO2" 0.000000000000000e+00
"I1.net7" 0.000000000000000e+00
"RL" 2.848035868435802e+00
"gnd!" 0.000000000000000e+00
"PORT1:p" -3.784435820810754e-02
"V0:p" 0.000000000000000e+00
"VG" 5.647286163704089e-01
"VI" 0.000000000000000e+00
"VNOISE" 1.077820895946231e-01
"VO1" 0.000000000000000e+00
"VO2" 0.000000000000000e+00
"I1.net7" 0.000000000000000e+00
"RL" 3.511191734215132e+00
"gnd!" 0.000000000000000e+00
"PORT1:p" -3.737535897039641e-02
"V0:p" 0.000000000000000e+00
"VG" 5.647286163704089e-01
"VI" 0.000000000000000e+00
"VNOISE" 1.312320514801792e-01
"VO1" 0.000000000000000e+00
"VO2" 0.000000000000000e+00
"I1.net7" 0.000000000000000e+00
"RL" 4.328761281083058e+00
"gnd!" 0.000000000000000e+00
"PORT1:p" -3.681291369137819e-02
"V0:p" 0.000000000000000e+00
"VG" 5.647286163704089e-01
"VI" 0.000000000000000e+00
"VNOISE" 1.593543154310904e-01
"VO1" 0.000000000000000e+00
"VO2" 0.000000000000000e+00
"I1.net7" 0.000000000000000e+00
"RL" 5.336699231206310e+00
"gnd!" 0.000000000000000e+00
"PORT1:p" -3.614237979109765e-02
"V0:p" 0.000000000000000e+00
"VG" 5.647286163704089e-01
"VI" 0.000000000000000e+00
"VNOISE" 1.928810104451173e-01
"VO1" 0.000000000000000e+00
"VO2" 0.000000000000000e+00
"I1.net7" 0.000000000000000e+00
"RL" 6.579332246575680e+00
"gnd!" 0.000000000000000e+00
"PORT1:p" -3.534859675055717e-02
"V0:p" 0.000000000000000e+00
"VG" 5.647286163704089e-01
"VI" 0.000000000000000e+00
"VNOISE" 2.325701624721411e-01
"VO1" 0.000000000000000e+00
"VO2" 0.000000000000000e+00
"I1.net7" 0.000000000000000e+00
"RL" 8.111308307896870e+00
"gnd!" 0.000000000000000e+00
"PORT1:p" -3.441670921265794e-02
"V0:p" 0.000000000000000e+00
"VG" 5.647286163704089e-01
"VI" 0.000000000000000e+00
"VNOISE" 2.791645393671031e-01
"VO1" 0.000000000000000e+00
"VO2" 0.000000000000000e+00
"I1.net7" 0.000000000000000e+00
"RL" 9.999999999999998e+00
"gnd!" 0.000000000000000e+00
"PORT1:p" -3.333333333333333e-02
"V0:p" 0.000000000000000e+00
"VG" 5.647286163704089e-01
"VI" 0.000000000000000e+00
"VNOISE" 3.333333333333333e-01
"VO1" 0.000000000000000e+00
"VO2" 0.000000000000000e+00
"I1.net7" 0.000000000000000e+00
"RL" 1.232846739442066e+01
"gnd!" 0.000000000000000e+00
"PORT1:p" -3.208806639418556e-02
"V0:p" 0.000000000000000e+00
"VG" 5.647286163704089e-01
"VI" 0.000000000000000e+00
"VNOISE" 3.955966802907219e-01
"VO1" 0.000000000000000e+00
"VO2" 0.000000000000000e+00
"I1.net7" 0.000000000000000e+00
"RL" 1.519911082952934e+01
"gnd!" 0.000000000000000e+00
"PORT1:p" -3.067526496226663e-02
"V0:p" 0.000000000000000e+00
"VG" 5.647286163704089e-01
"VI" 0.000000000000000e+00
"VNOISE" 4.662367518866685e-01
"VO1" 0.000000000000000e+00
"VO2" 0.000000000000000e+00
"I1.net7" 0.000000000000000e+00
"RL" 1.873817422860384e+01
"gnd!" 0.000000000000000e+00
"PORT1:p" -2.909591391456751e-02
"V0:p" 0.000000000000000e+00
"VG" 5.647286163704089e-01
"VI" 0.000000000000000e+00
"VNOISE" 5.452043042716247e-01
"VO1" 0.000000000000000e+00
"VO2" 0.000000000000000e+00
"I1.net7" 0.000000000000000e+00
"RL" 2.310129700083160e+01
"gnd!" 0.000000000000000e+00
"PORT1:p" -2.735929569043417e-02
"V0:p" 0.000000000000000e+00
"VG" 5.647286163704089e-01
"VI" 0.000000000000000e+00
"VNOISE" 6.320352154782917e-01
"VO1" 0.000000000000000e+00
"VO2" 0.000000000000000e+00
"I1.net7" 0.000000000000000e+00
"RL" 2.848035868435802e+01
"gnd!" 0.000000000000000e+00
"PORT1:p" -2.548408332387785e-02
"V0:p" 0.000000000000000e+00
"VG" 5.647286163704089e-01
"VI" 0.000000000000000e+00
"VNOISE" 7.257958338061077e-01
"VO1" 0.000000000000000e+00
"VO2" 0.000000000000000e+00
"I1.net7" 0.000000000000000e+00
"RL" 3.511191734215132e+01
"gnd!" 0.000000000000000e+00
"PORT1:p" -2.349847192326742e-02
"V0:p" 0.000000000000000e+00
"VG" 5.647286163704089e-01
"VI" 0.000000000000000e+00
"VNOISE" 8.250764038366291e-01
"VO1" 0.000000000000000e+00
"VO2" 0.000000000000000e+00
"I1.net7" 0.000000000000000e+00
"RL" 4.328761281083059e+01
"gnd!" 0.000000000000000e+00
"PORT1:p" -2.143907363194744e-02
"V0:p" 0.000000000000000e+00
"VG" 5.647286163704089e-01
"VI" 0.000000000000000e+00
"VNOISE" 9.280463184026281e-01
"VO1" 0.000000000000000e+00
"VO2" 0.000000000000000e+00
"I1.net7" 0.000000000000000e+00
"RL" 5.336699231206310e+01
"gnd!" 0.000000000000000e+00
"PORT1:p" -1.934853627125026e-02
"V0:p" 0.000000000000000e+00
"VG" 5.647286163704089e-01
"VI" 0.000000000000000e+00
"VNOISE" 1.032573186437487e+00
"VO1" 0.000000000000000e+00
"VO2" 0.000000000000000e+00
"I1.net7" 0.000000000000000e+00
"RL" 6.579332246575680e+01
"gnd!" 0.000000000000000e+00
"PORT1:p" -1.727215315538989e-02
"V0:p" 0.000000000000000e+00
"VG" 5.647286163704089e-01
"VI" 0.000000000000000e+00
"VNOISE" 1.136392342230506e+00
"VO1" 0.000000000000000e+00
"VO2" 0.000000000000000e+00
"I1.net7" 0.000000000000000e+00
"RL" 8.111308307896871e+01
"gnd!" 0.000000000000000e+00
"PORT1:p" -1.525400786125524e-02
"V0:p" 0.000000000000000e+00
"VG" 5.647286163704089e-01
"VI" 0.000000000000000e+00
"VNOISE" 1.237299606937238e+00
"VO1" 0.000000000000000e+00
"VO2" 0.000000000000000e+00
"I1.net7" 0.000000000000000e+00
"RL" 1.000000000000000e+02
"gnd!" 0.000000000000000e+00
"PORT1:p" -1.333333333333333e-02
"V0:p" 0.000000000000000e+00
"VG" 5.647286163704089e-01
"VI" 0.000000000000000e+00
"VNOISE" 1.333333333333333e+00
"VO1" 0.000000000000000e+00
"VO2" 0.000000000000000e+00
"I1.net7" 0.000000000000000e+00
END
