HEADER
"PSFversion" "1.00"
"simulator" "spectre"
"version" "10.1.1.128.isr9"
"date" "7:26:28 PM, Fri May 15, 2015"
"design" "// Generated by PySpectre"
"analysis type" "noise"
"analysis name" "noise"
"analysis description" "Noise Analysis `noise': freq = 1 Hz, RL = (1 -> 5e+03)"
"xVecSorted" "ascending"
"tolerance.relative" 0.00100000
"operating point producer" "noise"
"output" "pair of nodes"
"ground" "0"
"positive output signal" "VNOISE"
"negative output signal" "gnd!"
"input probe" "PORT1"
TYPE
"sweep" FLOAT DOUBLE PROP(
"key" "sweep"
)
"V/sqrt(Hz)" FLOAT DOUBLE PROP(
"units" "V/sqrt(Hz)"
"key" "noise"
)
"V^2/Hz" FLOAT DOUBLE PROP(
"units" "V^2/Hz"
"key" "noise"
)
"V/V" FLOAT DOUBLE PROP(
"units" "V/V"
"key" "noise"
)
"Noise factor" FLOAT DOUBLE PROP(
"units" "(V^2/Hz)/(V^2/Hz)"
"key" "noise"
)
"dB" FLOAT DOUBLE PROP(
"units" "dB"
"key" "noise"
)
"nmos" STRUCT(
"rd" FLOAT DOUBLE PROP(
"units" "V^2/Hz"
)
"rs" FLOAT DOUBLE PROP(
"units" "V^2/Hz"
)
"rgbi" FLOAT DOUBLE PROP(
"units" "V^2/Hz"
)
"rbpd" FLOAT DOUBLE PROP(
"units" "V^2/Hz"
)
"rbps" FLOAT DOUBLE PROP(
"units" "V^2/Hz"
)
"rbpb" FLOAT DOUBLE PROP(
"units" "V^2/Hz"
)
"rbdb" FLOAT DOUBLE PROP(
"units" "V^2/Hz"
)
"rbsb" FLOAT DOUBLE PROP(
"units" "V^2/Hz"
)
"id" FLOAT DOUBLE PROP(
"units" "V^2/Hz"
)
"igs" FLOAT DOUBLE PROP(
"units" "V^2/Hz"
)
"igd" FLOAT DOUBLE PROP(
"units" "V^2/Hz"
)
"igb" FLOAT DOUBLE PROP(
"units" "V^2/Hz"
)
"fn" FLOAT DOUBLE PROP(
"units" "V^2/Hz"
)
"total" FLOAT DOUBLE PROP(
"units" "V^2/Hz"
)
) PROP(
"key" "inst"
"master" "bsim4"
)
"port" STRUCT(
"rn" FLOAT DOUBLE PROP(
"units" "V^2/Hz"
)
"ext_file_noise" FLOAT DOUBLE PROP(
"units" "V^2/Hz"
)
"total" FLOAT DOUBLE PROP(
"units" "V^2/Hz"
)
) PROP(
"key" "inst"
"master" "port"
)
"resistor" STRUCT(
"rn" FLOAT DOUBLE PROP(
"units" "V^2/Hz"
)
"fn" FLOAT DOUBLE PROP(
"units" "V^2/Hz"
)
"total" FLOAT DOUBLE PROP(
"units" "V^2/Hz"
)
) PROP(
"key" "inst"
"master" "resistor"
)
SWEEP
"RL" "sweep" PROP(
"sweep_direction" 0
"plot" 0
"grid" 3
)
TRACE
"M0" "nmos"
"PORT1" "port"
"R0" "resistor"
"I0.R0" "resistor"
"I1.I0.R0" "resistor"
"I1.I3.R0" "resistor"
"F" "Noise factor"
"NF" "dB"
"out" "V/sqrt(Hz)"
"in" "V/sqrt(Hz)"
"gain" "V/V"
VALUE
"RL" 1.000000000000000e+00
"M0" (
0.000000000000000e+00
0.000000000000000e+00
0.000000000000000e+00
0.000000000000000e+00
0.000000000000000e+00
0.000000000000000e+00
0.000000000000000e+00
0.000000000000000e+00
0.000000000000000e+00
0.000000000000000e+00
0.000000000000000e+00
0.000000000000000e+00
0.000000000000000e+00
0.000000000000000e+00
)
"PORT1" (
3.078666312956555e-22
0.000000000000000e+00
3.078666312956555e-22
)
"R0" (
1.593209816955017e-20
0.000000000000000e+00
1.593209816955017e-20
)
"I0.R0" (
0.000000000000000e+00
0.000000000000000e+00
0.000000000000000e+00
)
"I1.I0.R0" (
0.000000000000000e+00
0.000000000000000e+00
0.000000000000000e+00
)
"I1.I3.R0" (
0.000000000000000e+00
0.000000000000000e+00
0.000000000000000e+00
)
"F" 5.275000000000000e+01
"NF" 1.722222463969730e+01
"out" 1.274361204715752e-10
"in" 3.249621072025167e-09
"gain" 3.921568627450980e-02
"RL" 1.185712504868911e+00
"M0" (
0.000000000000000e+00
0.000000000000000e+00
0.000000000000000e+00
0.000000000000000e+00
0.000000000000000e+00
0.000000000000000e+00
0.000000000000000e+00
0.000000000000000e+00
0.000000000000000e+00
0.000000000000000e+00
0.000000000000000e+00
0.000000000000000e+00
0.000000000000000e+00
0.000000000000000e+00
)
"PORT1" (
4.296989237396615e-22
0.000000000000000e+00
4.296989237396615e-22
)
"R0" (
1.875405649532720e-20
0.000000000000000e+00
1.875405649532720e-20
)
"I0.R0" (
0.000000000000000e+00
0.000000000000000e+00
0.000000000000000e+00
)
"I1.I0.R0" (
0.000000000000000e+00
0.000000000000000e+00
0.000000000000000e+00
)
"I1.I3.R0" (
0.000000000000000e+00
0.000000000000000e+00
0.000000000000000e+00
)
"F" 4.464464386391989e+01
"NF" 1.649769362891420e+01
"out" 1.385054346192483e-10
"in" 2.989552411596839e-09
"gain" 4.632982318087778e-02
"RL" 1.405914144202506e+00
"M0" (
0.000000000000000e+00
0.000000000000000e+00
0.000000000000000e+00
0.000000000000000e+00
0.000000000000000e+00
0.000000000000000e+00
0.000000000000000e+00
0.000000000000000e+00
0.000000000000000e+00
0.000000000000000e+00
0.000000000000000e+00
0.000000000000000e+00
0.000000000000000e+00
0.000000000000000e+00
)
"PORT1" (
5.989552818515626e-22
0.000000000000000e+00
5.989552818515626e-22
)
"R0" (
2.204681983152006e-20
0.000000000000000e+00
2.204681983152006e-20
)
"I0.R0" (
0.000000000000000e+00
0.000000000000000e+00
0.000000000000000e+00
)
"I1.I0.R0" (
0.000000000000000e+00
0.000000000000000e+00
0.000000000000000e+00
)
"I1.I3.R0" (
0.000000000000000e+00
0.000000000000000e+00
0.000000000000000e+00
)
"F" 3.780879107262612e+01
"NF" 1.577592791118651e+01
"out" 1.504851325326579e-10
"in" 2.751172905846550e-09
"gain" 5.469853683600191e-02
"RL" 1.667009981552984e+00
"M0" (
0.000000000000000e+00
0.000000000000000e+00
0.000000000000000e+00
0.000000000000000e+00
0.000000000000000e+00
0.000000000000000e+00
0.000000000000000e+00
0.000000000000000e+00
0.000000000000000e+00
0.000000000000000e+00
0.000000000000000e+00
0.000000000000000e+00
0.000000000000000e+00
0.000000000000000e+00
)
"PORT1" (
8.335904180518251e-22
0.000000000000000e+00
8.335904180518251e-22
)
"R0" (
2.587765197062249e-20
0.000000000000000e+00
2.587765197062249e-20
)
"I0.R0" (
0.000000000000000e+00
0.000000000000000e+00
0.000000000000000e+00
)
"I1.I0.R0" (
0.000000000000000e+00
0.000000000000000e+00
0.000000000000000e+00
)
"I1.I3.R0" (
0.000000000000000e+00
0.000000000000000e+00
0.000000000000000e+00
)
"F" 3.204360536089278e+01
"NF" 1.505741374461232e+01
"out" 1.634357439138523e-10
"in" 2.532749145350919e-09
"gain" 6.452898985825455e-02
"RL" 1.976594580868666e+00
"M0" (
0.000000000000000e+00
0.000000000000000e+00
0.000000000000000e+00
0.000000000000000e+00
0.000000000000000e+00
0.000000000000000e+00
0.000000000000000e+00
0.000000000000000e+00
0.000000000000000e+00
0.000000000000000e+00
0.000000000000000e+00
0.000000000000000e+00
0.000000000000000e+00
0.000000000000000e+00
)
"PORT1" (
1.158037248576635e-21
0.000000000000000e+00
1.158037248576635e-21
)
"R0" (
3.031902859285577e-20
0.000000000000000e+00
3.031902859285577e-20
)
"I0.R0" (
0.000000000000000e+00
0.000000000000000e+00
0.000000000000000e+00
)
"I1.I0.R0" (
0.000000000000000e+00
0.000000000000000e+00
0.000000000000000e+00
)
"I1.I3.R0" (
0.000000000000000e+00
0.000000000000000e+00
0.000000000000000e+00
)
"F" 2.718139324112541e+01
"NF" 1.434271713670397e+01
"out" 1.774177720563315e-10
"in" 2.332691716062546e-09
"gain" 7.605710211712111e-02
"RL" 2.343672911592100e+00
"M0" (
0.000000000000000e+00
0.000000000000000e+00
0.000000000000000e+00
0.000000000000000e+00
0.000000000000000e+00
0.000000000000000e+00
0.000000000000000e+00
0.000000000000000e+00
0.000000000000000e+00
0.000000000000000e+00
0.000000000000000e+00
0.000000000000000e+00
0.000000000000000e+00
0.000000000000000e+00
)
"PORT1" (
1.605345761685423e-21
0.000000000000000e+00
1.605345761685423e-21
)
"R0" (
3.544720031379513e-20
0.000000000000000e+00
3.544720031379513e-20
)
"I0.R0" (
0.000000000000000e+00
0.000000000000000e+00
0.000000000000000e+00
)
"I1.I0.R0" (
0.000000000000000e+00
0.000000000000000e+00
0.000000000000000e+00
)
"I1.I3.R0" (
0.000000000000000e+00
0.000000000000000e+00
0.000000000000000e+00
)
"F" 2.308072625836055e+01
"NF" 1.363249470213157e+01
"out" 1.924903791764164e-10
"in" 2.149543435946892e-09
"gain" 8.954942522090636e-02
"RL" 2.778922278597281e+00
"M0" (
0.000000000000000e+00
0.000000000000000e+00
0.000000000000000e+00
0.000000000000000e+00
0.000000000000000e+00
0.000000000000000e+00
0.000000000000000e+00
0.000000000000000e+00
0.000000000000000e+00
0.000000000000000e+00
0.000000000000000e+00
0.000000000000000e+00
0.000000000000000e+00
0.000000000000000e+00
)
"PORT1" (
2.219906777408112e-21
0.000000000000000e+00
2.219906777408112e-21
)
"R0" (
4.133983041398982e-20
0.000000000000000e+00
4.133983041398982e-20
)
"I0.R0" (
0.000000000000000e+00
0.000000000000000e+00
0.000000000000000e+00
)
"I1.I0.R0" (
0.000000000000000e+00
0.000000000000000e+00
0.000000000000000e+00
)
"I1.I3.R0" (
0.000000000000000e+00
0.000000000000000e+00
0.000000000000000e+00
)
"F" 1.962232722324350e+01
"NF" 1.292750513761336e+01
"out" 2.087096959688215e-10
"in" 1.981968496774295e-09
"gain" 1.053042449002101e-01
"RL" 3.295002895791603e+00
"M0" (
0.000000000000000e+00
0.000000000000000e+00
0.000000000000000e+00
0.000000000000000e+00
0.000000000000000e+00
0.000000000000000e+00
0.000000000000000e+00
0.000000000000000e+00
0.000000000000000e+00
0.000000000000000e+00
0.000000000000000e+00
0.000000000000000e+00
0.000000000000000e+00
0.000000000000000e+00
)
"PORT1" (
3.060846797933702e-21
0.000000000000000e+00
3.060846797933702e-21
)
"R0" (
4.807243781041193e-20
0.000000000000000e+00
4.807243781041193e-20
)
"I0.R0" (
0.000000000000000e+00
0.000000000000000e+00
0.000000000000000e+00
)
"I1.I0.R0" (
0.000000000000000e+00
0.000000000000000e+00
0.000000000000000e+00
)
"I1.I3.R0" (
0.000000000000000e+00
0.000000000000000e+00
0.000000000000000e+00
)
"F" 1.670560076475059e+01
"NF" 1.222862098299481e+01
"out" 2.261267003437357e-10
"in" 1.828742421596555e-09
"gain" 1.236514763770391e-01
"RL" 3.906926137119375e+00
"M0" (
0.000000000000000e+00
0.000000000000000e+00
0.000000000000000e+00
0.000000000000000e+00
0.000000000000000e+00
0.000000000000000e+00
0.000000000000000e+00
0.000000000000000e+00
0.000000000000000e+00
0.000000000000000e+00
0.000000000000000e+00
0.000000000000000e+00
0.000000000000000e+00
0.000000000000000e+00
)
"PORT1" (
4.206144964473400e-21
0.000000000000000e+00
4.206144964473400e-21
)
"R0" (
5.571336500156815e-20
0.000000000000000e+00
5.571336500156815e-20
)
"I0.R0" (
0.000000000000000e+00
0.000000000000000e+00
0.000000000000000e+00
)
"I1.I0.R0" (
0.000000000000000e+00
0.000000000000000e+00
0.000000000000000e+00
)
"I1.I3.R0" (
0.000000000000000e+00
0.000000000000000e+00
0.000000000000000e+00
)
"F" 1.424570728592169e+01
"NF" 1.153684016421928e+01
"out" 2.447846195455130e-10
"in" 1.688742753538733e-09
"gain" 1.449508038051212e-01
"RL" 4.632491176381631e+00
"M0" (
0.000000000000000e+00
0.000000000000000e+00
0.000000000000000e+00
0.000000000000000e+00
0.000000000000000e+00
0.000000000000000e+00
0.000000000000000e+00
0.000000000000000e+00
0.000000000000000e+00
0.000000000000000e+00
0.000000000000000e+00
0.000000000000000e+00
0.000000000000000e+00
0.000000000000000e+00
)
"PORT1" (
5.757449864357817e-21
0.000000000000000e+00
5.757449864357817e-21
)
"R0" (
6.431702061292209e-20
0.000000000000000e+00
6.431702061292209e-20
)
"I0.R0" (
0.000000000000000e+00
0.000000000000000e+00
0.000000000000000e+00
)
"I1.I0.R0" (
0.000000000000000e+00
0.000000000000000e+00
0.000000000000000e+00
)
"I1.I3.R0" (
0.000000000000000e+00
0.000000000000000e+00
0.000000000000000e+00
)
"F" 1.217109521197645e+01
"NF" 1.085329659833753e+01
"out" 2.647158296688732e-10
"in" 1.560940396645221e-09
"gain" 1.695874040019731e-01
"RL" 5.492802716530590e+00
"M0" (
0.000000000000000e+00
0.000000000000000e+00
0.000000000000000e+00
0.000000000000000e+00
0.000000000000000e+00
0.000000000000000e+00
0.000000000000000e+00
0.000000000000000e+00
0.000000000000000e+00
0.000000000000000e+00
0.000000000000000e+00
0.000000000000000e+00
0.000000000000000e+00
0.000000000000000e+00
)
"PORT1" (
7.845446296306963e-21
0.000000000000000e+00
7.845446296306963e-21
)
"R0" (
7.391524268876849e-20
0.000000000000000e+00
7.391524268876849e-20
)
"I0.R0" (
0.000000000000000e+00
0.000000000000000e+00
0.000000000000000e+00
)
"I1.I0.R0" (
0.000000000000000e+00
0.000000000000000e+00
0.000000000000000e+00
)
"I1.I3.R0" (
0.000000000000000e+00
0.000000000000000e+00
0.000000000000000e+00
)
"F" 1.042141975065996e+01
"NF" 1.017926888625230e+01
"out" 2.859382607925624e-10
"in" 1.444391535082468e-09
"gain" 1.979645088242896e-01
"RL" 6.512884867768242e+00
"M0" (
0.000000000000000e+00
0.000000000000000e+00
0.000000000000000e+00
0.000000000000000e+00
0.000000000000000e+00
0.000000000000000e+00
0.000000000000000e+00
0.000000000000000e+00
0.000000000000000e+00
0.000000000000000e+00
0.000000000000000e+00
0.000000000000000e+00
0.000000000000000e+00
0.000000000000000e+00
)
"PORT1" (
1.063542424009538e-20
0.000000000000000e+00
1.063542424009538e-20
)
"R0" (
8.450682233747740e-20
0.000000000000000e+00
8.450682233747740e-20
)
"I0.R0" (
0.000000000000000e+00
0.000000000000000e+00
0.000000000000000e+00
)
"I1.I0.R0" (
0.000000000000000e+00
0.000000000000000e+00
0.000000000000000e+00
)
"I1.I3.R0" (
0.000000000000000e+00
0.000000000000000e+00
0.000000000000000e+00
)
"F" 8.945787627247444e+00
"NF" 9.516185838199458e+00
"out" 3.084513682536889e-10
"in" 1.338230063584673e-09
"gain" 2.304920332064953e-01
"RL" 7.722409030484306e+00
"M0" (
0.000000000000000e+00
0.000000000000000e+00
0.000000000000000e+00
0.000000000000000e+00
0.000000000000000e+00
0.000000000000000e+00
0.000000000000000e+00
0.000000000000000e+00
0.000000000000000e+00
0.000000000000000e+00
0.000000000000000e+00
0.000000000000000e+00
0.000000000000000e+00
0.000000000000000e+00
)
"PORT1" (
1.433242500407486e-20
0.000000000000000e+00
1.433242500407486e-20
)
"R0" (
9.604554628393705e-20
0.000000000000000e+00
9.604554628393705e-20
)
"I0.R0" (
0.000000000000000e+00
0.000000000000000e+00
0.000000000000000e+00
)
"I1.I0.R0" (
0.000000000000000e+00
0.000000000000000e+00
0.000000000000000e+00
)
"I1.I3.R0" (
0.000000000000000e+00
0.000000000000000e+00
0.000000000000000e+00
)
"F" 7.701276738348906e+00
"NF" 8.865627296472345e+00
"out" 3.322318035468789e-10
"in" 1.241660470299238e-09
"gain" 2.675705730301712e-01
"RL" 9.156556955157841e+00
"M0" (
0.000000000000000e+00
0.000000000000000e+00
0.000000000000000e+00
0.000000000000000e+00
0.000000000000000e+00
0.000000000000000e+00
0.000000000000000e+00
0.000000000000000e+00
0.000000000000000e+00
0.000000000000000e+00
0.000000000000000e+00
0.000000000000000e+00
0.000000000000000e+00
0.000000000000000e+00
)
"PORT1" (
1.918499082299647e-20
0.000000000000000e+00
1.918499082299647e-20
)
"R0" (
1.084275759930500e-19
0.000000000000000e+00
1.084275759930500e-19
)
"I0.R0" (
0.000000000000000e+00
0.000000000000000e+00
0.000000000000000e+00
)
"I1.I0.R0" (
0.000000000000000e+00
0.000000000000000e+00
0.000000000000000e+00
)
"I1.I3.R0" (
0.000000000000000e+00
0.000000000000000e+00
0.000000000000000e+00
)
"F" 6.651687665290989e+00
"NF" 8.229318484210173e+00
"out" 3.572290117222374e-10
"in" 1.153951123848877e-09
"gain" 3.095703139754649e-01
"RL" 1.000000000000000e+01
"M0" (
0.000000000000000e+00
0.000000000000000e+00
0.000000000000000e+00
0.000000000000000e+00
0.000000000000000e+00
0.000000000000000e+00
0.000000000000000e+00
0.000000000000000e+00
0.000000000000000e+00
0.000000000000000e+00
0.000000000000000e+00
0.000000000000000e+00
0.000000000000000e+00
0.000000000000000e+00
)
"PORT1" (
2.224336411111111e-20
0.000000000000000e+00
2.224336411111111e-20
)
"R0" (
1.151094092750000e-19
0.000000000000000e+00
1.151094092750000e-19
)
"I0.R0" (
0.000000000000000e+00
0.000000000000000e+00
0.000000000000000e+00
)
"I1.I0.R0" (
0.000000000000000e+00
0.000000000000000e+00
0.000000000000000e+00
)
"I1.I3.R0" (
0.000000000000000e+00
0.000000000000000e+00
0.000000000000000e+00
)
"F" 6.175000000000000e+00
"NF" 7.906369619317034e+00
"out" 3.706113508597802e-10
"in" 1.111834052579341e-09
"gain" 3.333333333333333e-01
"RL" 1.085704408327505e+01
"M0" (
0.000000000000000e+00
0.000000000000000e+00
0.000000000000000e+00
0.000000000000000e+00
0.000000000000000e+00
0.000000000000000e+00
0.000000000000000e+00
0.000000000000000e+00
0.000000000000000e+00
0.000000000000000e+00
0.000000000000000e+00
0.000000000000000e+00
0.000000000000000e+00
0.000000000000000e+00
)
"PORT1" (
2.548616355578639e-20
0.000000000000000e+00
2.548616355578639e-20
)
"R0" (
1.214795623832536e-19
0.000000000000000e+00
1.214795623832536e-19
)
"I0.R0" (
0.000000000000000e+00
0.000000000000000e+00
0.000000000000000e+00
)
"I1.I0.R0" (
0.000000000000000e+00
0.000000000000000e+00
0.000000000000000e+00
)
"I1.I3.R0" (
0.000000000000000e+00
0.000000000000000e+00
0.000000000000000e+00
)
"F" 5.766490732014189e+00
"NF" 7.609115983604062e+00
"out" 3.833610907995750e-10
"in" 1.074427930091103e-09
"gain" 3.568048447577762e-01
"RL" 1.287333293545224e+01
"M0" (
0.000000000000000e+00
0.000000000000000e+00
0.000000000000000e+00
0.000000000000000e+00
0.000000000000000e+00
0.000000000000000e+00
0.000000000000000e+00
0.000000000000000e+00
0.000000000000000e+00
0.000000000000000e+00
0.000000000000000e+00
0.000000000000000e+00
0.000000000000000e+00
0.000000000000000e+00
)
"PORT1" (
3.357005156380101e-20
0.000000000000000e+00
3.357005156380101e-20
)
"R0" (
1.349495252812455e-19
0.000000000000000e+00
1.349495252812455e-19
)
"I0.R0" (
0.000000000000000e+00
0.000000000000000e+00
0.000000000000000e+00
)
"I1.I0.R0" (
0.000000000000000e+00
0.000000000000000e+00
0.000000000000000e+00
)
"I1.I3.R0" (
0.000000000000000e+00
0.000000000000000e+00
0.000000000000000e+00
)
"F" 5.019937980278921e+00
"NF" 7.006983516093582e+00
"out" 4.105113601900031e-10
"in" 1.002468341043675e-09
"gain" 4.095005731179676e-01
"RL" 1.526407184090652e+01
"M0" (
0.000000000000000e+00
0.000000000000000e+00
0.000000000000000e+00
0.000000000000000e+00
0.000000000000000e+00
0.000000000000000e+00
0.000000000000000e+00
0.000000000000000e+00
0.000000000000000e+00
0.000000000000000e+00
0.000000000000000e+00
0.000000000000000e+00
0.000000000000000e+00
0.000000000000000e+00
)
"PORT1" (
4.380215145693923e-20
0.000000000000000e+00
4.380215145693923e-20
)
"R0" (
1.485030574752578e-19
0.000000000000000e+00
1.485030574752578e-19
)
"I0.R0" (
0.000000000000000e+00
0.000000000000000e+00
0.000000000000000e+00
)
"I1.I0.R0" (
0.000000000000000e+00
0.000000000000000e+00
0.000000000000000e+00
)
"I1.I3.R0" (
0.000000000000000e+00
0.000000000000000e+00
0.000000000000000e+00
)
"F" 4.390314231967516e+00
"NF" 6.424956055099108e+00
"out" 4.385261781606623e-10
"in" 9.374957185046871e-10
"gain" 4.677633929465993e-01
"RL" 1.809880085698028e+01
"M0" (
0.000000000000000e+00
0.000000000000000e+00
0.000000000000000e+00
0.000000000000000e+00
0.000000000000000e+00
0.000000000000000e+00
0.000000000000000e+00
0.000000000000000e+00
0.000000000000000e+00
0.000000000000000e+00
0.000000000000000e+00
0.000000000000000e+00
0.000000000000000e+00
0.000000000000000e+00
)
"PORT1" (
5.656185520319735e-20
0.000000000000000e+00
5.656185520319735e-20
)
"R0" (
1.617276210670365e-19
0.000000000000000e+00
1.617276210670365e-19
)
"I0.R0" (
0.000000000000000e+00
0.000000000000000e+00
0.000000000000000e+00
)
"I1.I0.R0" (
0.000000000000000e+00
0.000000000000000e+00
0.000000000000000e+00
)
"I1.I3.R0" (
0.000000000000000e+00
0.000000000000000e+00
0.000000000000000e+00
)
"F" 3.859305453932394e+00
"NF" 5.865091532040607e+00
"out" 4.672145933832054e-10
"in" 8.789740768932475e-10
"gain" 5.315453614224724e-01
"RL" 2.145997449925367e+01
"M0" (
0.000000000000000e+00
0.000000000000000e+00
0.000000000000000e+00
0.000000000000000e+00
0.000000000000000e+00
0.000000000000000e+00
0.000000000000000e+00
0.000000000000000e+00
0.000000000000000e+00
0.000000000000000e+00
0.000000000000000e+00
0.000000000000000e+00
0.000000000000000e+00
0.000000000000000e+00
)
"PORT1" (
7.221637109936082e-20
0.000000000000000e+00
7.221637109936082e-20
)
"R0" (
1.741473273662042e-19
0.000000000000000e+00
1.741473273662042e-19
)
"I0.R0" (
0.000000000000000e+00
0.000000000000000e+00
0.000000000000000e+00
)
"I1.I0.R0" (
0.000000000000000e+00
0.000000000000000e+00
0.000000000000000e+00
)
"I1.I3.R0" (
0.000000000000000e+00
0.000000000000000e+00
0.000000000000000e+00
)
"F" 3.411466052851076e+00
"NF" 5.329410540175643e+00
"out" 4.963503787301516e-10
"in" 8.264032515039819e-10
"gain" 6.006152297039457e-01
"RL" 2.544536011793301e+01
"M0" (
0.000000000000000e+00
0.000000000000000e+00
0.000000000000000e+00
0.000000000000000e+00
0.000000000000000e+00
0.000000000000000e+00
0.000000000000000e+00
0.000000000000000e+00
0.000000000000000e+00
0.000000000000000e+00
0.000000000000000e+00
0.000000000000000e+00
0.000000000000000e+00
