HEADER
"PSFversion" "1.00"
"simulator" "spectre"
"version" "10.1.1.128.isr9"
"date" "7:26:28 PM, Fri May 15, 2015"
"design" "// Generated by PySpectre"
"analysis type" "xf"
"analysis name" "xf"
"analysis description" "Transfer Function Analysis `xf': freq = (1 Hz -> 1 THz)"
"xVecSorted" "ascending"
"tolerance.relative" 0.00100000
"start" 1.00000
"stop" 1.00000e+12
"operating point producer" "xf"
"stimuli" "sources"
"output" "pair of nodes"
"ground" "0"
"positive output signal" "VO2"
"negative output signal" "gnd!"
TYPE
"sweep" FLOAT DOUBLE PROP(
"key" "sweep"
)
"V/V" COMPLEX DOUBLE PROP(
"units" "V/V"
"key" "branch"
)
"V/A" COMPLEX DOUBLE PROP(
"units" "V/A"
"key" "node"
)
"V/A*turn" COMPLEX DOUBLE PROP(
"units" "V/A*turn"
"key" "branch"
)
"V/Wb" COMPLEX DOUBLE PROP(
"units" "V/Wb"
"key" "branch"
)
"V/C" COMPLEX DOUBLE PROP(
"units" "V/C"
"key" "branch"
)
"V/W" COMPLEX DOUBLE PROP(
"units" "V/W"
"key" "branch"
)
"V/" COMPLEX DOUBLE PROP(
"units" "V/"
"key" "branch"
)
"V/(V/s)" COMPLEX DOUBLE PROP(
"units" "V/(V/s)"
"key" "branch"
)
"V/(A/s)" COMPLEX DOUBLE PROP(
"units" "V/(A/s)"
"key" "branch"
)
"V/(1/s)" COMPLEX DOUBLE PROP(
"units" "V/(1/s)"
"key" "branch"
)
SWEEP
"freq" "sweep" PROP(
"sweep_direction" 0
"units" "Hz"
"plot" 0
"grid" 3
)
TRACE
"I10" "V/A"
"PORT1" "V/V"
"V0" "V/V"
VALUE
"freq" 1.000000000000000e+00
"I10" (0.00000 0.00000)
"PORT1" (0.00000 0.00000)
"V0" (1.00000 -1.81773e-07)
"freq" 1.737800828749376e+00
"I10" (0.00000 0.00000)
"PORT1" (0.00000 0.00000)
"V0" (1.00000 -3.15884e-07)
"freq" 3.019951720402017e+00
"I10" (0.00000 0.00000)
"PORT1" (0.00000 0.00000)
"V0" (1.00000 -5.48944e-07)
"freq" 5.248074602497727e+00
"I10" (0.00000 0.00000)
"PORT1" (0.00000 0.00000)
"V0" (1.00000 -9.53956e-07)
"freq" 9.120108393559100e+00
"I10" (0.00000 0.00000)
"PORT1" (0.00000 0.00000)
"V0" (1.00000 -1.65779e-06)
"freq" 1.584893192461114e+01
"I10" (0.00000 0.00000)
"PORT1" (0.00000 0.00000)
"V0" (1.00000 -2.88090e-06)
"freq" 2.754228703338168e+01
"I10" (0.00000 0.00000)
"PORT1" (0.00000 0.00000)
"V0" (1.00000 -5.00643e-06)
"freq" 4.786300923226386e+01
"I10" (0.00000 0.00000)
"PORT1" (0.00000 0.00000)
"V0" (1.00000 -8.70018e-06)
"freq" 8.317637711026714e+01
"I10" (0.00000 0.00000)
"PORT1" (0.00000 0.00000)
"V0" (1.00000 -1.51192e-05)
"freq" 1.445439770745928e+02
"I10" (0.00000 0.00000)
"PORT1" (0.00000 0.00000)
"V0" (1.00000 -2.62741e-05)
"freq" 2.511886431509581e+02
"I10" (0.00000 0.00000)
"PORT1" (0.00000 0.00000)
"V0" (1.00000 -4.56592e-05)
"freq" 4.365158322401662e+02
"I10" (0.00000 0.00000)
"PORT1" (0.00000 0.00000)
"V0" (1.00000 -7.93466e-05)
"freq" 7.585775750291842e+02
"I10" (0.00000 0.00000)
"PORT1" (0.00000 0.00000)
"V0" (1.00000 -0.000137889)
"freq" 1.318256738556408e+03
"I10" (0.00000 0.00000)
"PORT1" (0.00000 0.00000)
"V0" (1.00000 -0.000239623)
"freq" 2.290867652767775e+03
"I10" (0.00000 0.00000)
"PORT1" (0.00000 0.00000)
"V0" (1.00000 -0.000416417)
"freq" 3.981071705534976e+03
"I10" (0.00000 0.00000)
"PORT1" (0.00000 0.00000)
"V0" (1.00000 -0.000723649)
"freq" 6.918309709189371e+03
"I10" (0.00000 0.00000)
"PORT1" (0.00000 0.00000)
"V0" (0.999999 -0.00125756)
"freq" 1.202264434617414e+04
"I10" (0.00000 0.00000)
"PORT1" (0.00000 0.00000)
"V0" (0.999995 -0.00218538)
"freq" 2.089296130854042e+04
"I10" (0.00000 0.00000)
"PORT1" (0.00000 0.00000)
"V0" (0.999986 -0.00379772)
"freq" 3.630780547701018e+04
"I10" (0.00000 0.00000)
"PORT1" (0.00000 0.00000)
"V0" (0.999959 -0.00659951)
"freq" 6.309573444801941e+04
"I10" (0.00000 0.00000)
"PORT1" (0.00000 0.00000)
"V0" (0.999876 -0.0114677)
"freq" 1.096478196143187e+05
"I10" (0.00000 0.00000)
"PORT1" (0.00000 0.00000)
"V0" (0.999624 -0.0199239)
"freq" 1.905460717963250e+05
"I10" (0.00000 0.00000)
"PORT1" (0.00000 0.00000)
"V0" (0.998866 -0.0345990)
"freq" 3.311311214825916e+05
"I10" (0.00000 0.00000)
"PORT1" (0.00000 0.00000)
"V0" (0.996583 -0.0599964)
"freq" 5.754399373371578e+05
"I10" (0.00000 0.00000)
"PORT1" (0.00000 0.00000)
"V0" (0.989748 -0.103587)
"freq" 1.000000000000002e+06
"I10" (0.00000 0.00000)
"PORT1" (0.00000 0.00000)
"V0" (0.969631 -0.176562)
"freq" 1.737800828749378e+06
"I10" (0.00000 0.00000)
"PORT1" (0.00000 0.00000)
"V0" (0.913295 -0.290032)
"freq" 3.019951720402021e+06
"I10" (0.00000 0.00000)
"PORT1" (0.00000 0.00000)
"V0" (0.775222 -0.432472)
"freq" 5.248074602497734e+06
"I10" (0.00000 0.00000)
"PORT1" (0.00000 0.00000)
"V0" (0.524484 -0.525747)
"freq" 9.120108393559111e+06
"I10" (0.00000 0.00000)
"PORT1" (0.00000 0.00000)
"V0" (0.246045 -0.477718)
"freq" 1.584893192461116e+07
"I10" (0.00000 0.00000)
"PORT1" (0.00000 0.00000)
"V0" (0.0650660 -0.336681)
"freq" 2.754228703338171e+07
"I10" (0.00000 0.00000)
"PORT1" (0.00000 0.00000)
"V0" (-0.0143777 -0.202491)
"freq" 4.786300923226392e+07
"I10" (0.00000 0.00000)
"PORT1" (0.00000 0.00000)
"V0" (-0.0399638 -0.106795)
"freq" 8.317637711026727e+07
"I10" (0.00000 0.00000)
"PORT1" (0.00000 0.00000)
"V0" (-0.0395698 -0.0439926)
"freq" 1.445439770745930e+08
"I10" (0.00000 0.00000)
"PORT1" (0.00000 0.00000)
"V0" (-0.0245494 -0.00874045)
"freq" 2.511886431509585e+08
"I10" (0.00000 0.00000)
"PORT1" (0.00000 0.00000)
"V0" (-0.00857090 0.00190233)
"freq" 4.365158322401669e+08
"I10" (0.00000 0.00000)
"PORT1" (0.00000 0.00000)
"V0" (-0.00170524 0.00146282)
"freq" 7.585775750291854e+08
"I10" (0.00000 0.00000)
"PORT1" (0.00000 0.00000)
"V0" (-0.000238680 0.000420142)
"freq" 1.318256738556410e+09
"I10" (0.00000 0.00000)
"PORT1" (0.00000 0.00000)
"V0" (-2.85771e-05 9.18379e-05)
"freq" 2.290867652767778e+09
"I10" (0.00000 0.00000)
"PORT1" (0.00000 0.00000)
"V0" (-3.22889e-06 1.83197e-05)
"freq" 3.981071705534982e+09
"I10" (0.00000 0.00000)
"PORT1" (0.00000 0.00000)
"V0" (-3.57613e-07 3.54427e-06)
"freq" 6.918309709189383e+09
"I10" (0.00000 0.00000)
"PORT1" (0.00000 0.00000)
"V0" (-3.93425e-08 6.78761e-07)
"freq" 1.202264434617416e+10
"I10" (0.00000 0.00000)
"PORT1" (0.00000 0.00000)
"V0" (-4.31860e-09 1.29551e-07)
"freq" 2.089296130854045e+10
"I10" (0.00000 0.00000)
"PORT1" (0.00000 0.00000)
"V0" (-4.73698e-10 2.46992e-08)
"freq" 3.630780547701023e+10
"I10" (0.00000 0.00000)
"PORT1" (0.00000 0.00000)
"V0" (-5.19463e-11 4.70719e-09)
"freq" 6.309573444801950e+10
"I10" (0.00000 0.00000)
"PORT1" (0.00000 0.00000)
"V0" (-5.69602e-12 8.96992e-10)
"freq" 1.096478196143188e+11
"I10" (0.00000 0.00000)
"PORT1" (0.00000 0.00000)
"V0" (-6.24565e-13 1.70922e-10)
"freq" 1.905460717963253e+11
"I10" (0.00000 0.00000)
"PORT1" (0.00000 0.00000)
"V0" (-6.84825e-14 3.25687e-11)
"freq" 3.311311214825921e+11
"I10" (0.00000 0.00000)
"PORT1" (0.00000 0.00000)
"V0" (-7.50897e-15 6.20585e-12)
"freq" 5.754399373371587e+11
"I10" (0.00000 0.00000)
"PORT1" (0.00000 0.00000)
"V0" (-8.23342e-16 1.18250e-12)
"freq" 1.000000000000000e+12
"I10" (0.00000 0.00000)
"PORT1" (0.00000 0.00000)
"V0" (-9.02777e-17 2.25321e-13)
END
