HEADER
"PSFversion" "1.00"
"simulator" "spectre"
"version" "10.1.1.128.isr9"
"date" "4:20:13 PM, Fri May 15, 2015"
"design" "// Generated by PySpectre"
"analysis type" "dc"
"analysis name" "dc"
"analysis description" "DC Analysis `dc': VGBIAS = (0 -> 1)"
"xVecSorted" "unsorted"
"tolerance.relative" 0.00100000
"reltol" 0.00100000
"abstol(V)" 1.00000e-06
"abstol(I)" 1.00000e-12
"temp" 27.0000
"tnom" 27.0000
"tempeffects" "all"
"gmindc" 1.00000e-12
TYPE
"sweep" FLOAT DOUBLE PROP(
"key" "sweep"
)
"V" FLOAT DOUBLE PROP(
"units" "V"
"key" "node"
"tolerance" 1.00000e-06
)
"I" FLOAT DOUBLE PROP(
"units" "A"
"key" "branch"
"tolerance" 1.00000e-12
)
"MMF" FLOAT DOUBLE PROP(
"units" "A*turn"
"key" "node"
"tolerance" 1.00000e-12
)
"Wb" FLOAT DOUBLE PROP(
"units" "Wb"
"key" "node"
"tolerance" 1.00000e-09
)
"Temp" FLOAT DOUBLE PROP(
"units" "C"
"key" "node"
"tolerance" 0.000100000
)
"Pwr" FLOAT DOUBLE PROP(
"units" "W"
"key" "node"
"tolerance" 1.00000e-09
)
"U" FLOAT DOUBLE PROP(
"units" ""
"key" "node"
"tolerance" 1.00000e-06
)
"V/Sec" FLOAT DOUBLE PROP(
"units" "V/s"
"key" "node"
"tolerance" 0.000100000
)
"I/Sec" FLOAT DOUBLE PROP(
"units" "A/s"
"key" "node"
"tolerance" 1.00000e-06
)
"1/Sec" FLOAT DOUBLE PROP(
"units" "1/s"
"key" "node"
"tolerance" 0.000100000
)
"HOD" FLOAT DOUBLE PROP(
"units" ""
"key" "node"
"tolerance" 0.0100000
)
"-enum" INT BYTE PROP(
"key" "inst"
)
"A" FLOAT DOUBLE PROP(
"key" "inst"
)
"S" FLOAT DOUBLE PROP(
"key" "inst"
)
"A/V^2" FLOAT DOUBLE PROP(
"key" "inst"
)
"F" FLOAT DOUBLE PROP(
"key" "inst"
)
"F/m" FLOAT DOUBLE PROP(
"key" "inst"
)
"Ohm" FLOAT DOUBLE PROP(
"key" "inst"
)
"W" FLOAT DOUBLE PROP(
"key" "inst"
)
"1/V" FLOAT DOUBLE PROP(
"key" "inst"
)
SWEEP
"VGBIAS" "sweep" PROP(
"sweep_direction" 0
"plot" 0
"grid" 1
)
TRACE
"M0:region" "-enum" PROP(
"units" "-"
)
"M0:reversed" "-enum" PROP(
"units" "-"
)
"M0:ids" "A" PROP(
"units" "A"
)
"M0:vgs" "V" PROP(
"units" "V"
)
"M0:vds" "V" PROP(
"units" "V"
)
"M0:vbs" "V" PROP(
"units" "V"
)
"M0:vgd" "V" PROP(
"units" "V"
)
"M0:vdb" "V" PROP(
"units" "V"
)
"M0:vgb" "V" PROP(
"units" "V"
)
"M0:vth" "V" PROP(
"units" "V"
)
"M0:vdsat" "V" PROP(
"units" "V"
)
"M0:gm" "S" PROP(
"units" "S"
)
"M0:gds" "S" PROP(
"units" "S"
)
"M0:gmbs" "S" PROP(
"units" "S"
)
"M0:betaeff" "A/V^2" PROP(
"units" "A/V^2"
)
"M0:cjd" "F" PROP(
"units" "F"
)
"M0:cjs" "F" PROP(
"units" "F"
)
"M0:cgg" "F" PROP(
"units" "F"
)
"M0:cgd" "F" PROP(
"units" "F"
)
"M0:cgs" "F" PROP(
"units" "F"
)
"M0:cgb" "F" PROP(
"units" "F"
)
"M0:cdg" "F" PROP(
"units" "F"
)
"M0:cdd" "F" PROP(
"units" "F"
)
"M0:cds" "F" PROP(
"units" "F"
)
"M0:cdb" "F" PROP(
"units" "F"
)
"M0:csg" "F" PROP(
"units" "F"
)
"M0:csd" "F" PROP(
"units" "F"
)
"M0:css" "F" PROP(
"units" "F"
)
"M0:csb" "F" PROP(
"units" "F"
)
"M0:cbg" "F" PROP(
"units" "F"
)
"M0:cbd" "F" PROP(
"units" "F"
)
"M0:cbs" "F" PROP(
"units" "F"
)
"M0:cbb" "F" PROP(
"units" "F"
)
"M0:covlgs" "F/m" PROP(
"units" "F/m"
)
"M0:covlgd" "F/m" PROP(
"units" "F/m"
)
"M0:covlgb" "F/m" PROP(
"units" "F/m"
)
"M0:cggbo" "F" PROP(
"units" "F"
)
"M0:cgdbo" "F" PROP(
"units" "F"
)
"M0:cgsbo" "F" PROP(
"units" "F"
)
"M0:cbgbo" "F" PROP(
"units" "F"
)
"M0:cbdbo" "F" PROP(
"units" "F"
)
"M0:cbsbo" "F" PROP(
"units" "F"
)
"M0:cdgbo" "F" PROP(
"units" "F"
)
"M0:cddbo" "F" PROP(
"units" "F"
)
"M0:cdsbo" "F" PROP(
"units" "F"
)
"M0:ron" "Ohm" PROP(
"units" "Ohm"
)
"M0:id" "A" PROP(
"units" "A"
)
"M0:ibulk" "A" PROP(
"units" "A"
)
"M0:pwr" "W" PROP(
"units" "W"
)
"M0:gmoverid" "1/V" PROP(
"units" "1/V"
)
"M0:rdeff" "Ohm" PROP(
"units" "Ohm"
)
"M0:rseff" "Ohm" PROP(
"units" "Ohm"
)
"M0:rgbd" "Ohm" PROP(
"units" "Ohm"
)
"M0:igidl" "A" PROP(
"units" "A"
)
"M0:igisl" "A" PROP(
"units" "A"
)
"M0:igdt" "A" PROP(
"units" "A"
)
"M0:igd" "A" PROP(
"units" "A"
)
"M0:igs" "A" PROP(
"units" "A"
)
"M0:igb" "A" PROP(
"units" "A"
)
"M0:igbacc" "A" PROP(
"units" "A"
)
"M0:igbinv" "A" PROP(
"units" "A"
)
"M0:igcs" "A" PROP(
"units" "A"
)
"M0:igcd" "A" PROP(
"units" "A"
)
"M0:gbs" "S" PROP(
"units" "S"
)
"M0:gbd" "S" PROP(
"units" "S"
)
"M0:b" "I"
"M0:d" "I"
"M0:g" "I"
"M0:s" "I"
"V0:p" "I"
"VG" "V"
VALUE
"VGBIAS" 0.000000000000000e+00
"M0:region" 0
"M0:reversed" 0
"M0:ids" 0.000000000000000e+00
"M0:vgs" 0.000000000000000e+00
"M0:vds" 0.000000000000000e+00
"M0:vbs" 0.000000000000000e+00
"M0:vgd" 0.000000000000000e+00
"M0:vdb" 0.000000000000000e+00
"M0:vgb" 0.000000000000000e+00
"M0:vth" 4.634318553312020e-01
"M0:vdsat" 5.485386286603654e-02
"M0:gm" 0.000000000000000e+00
"M0:gds" 2.291598405102022e-08
"M0:gmbs" 0.000000000000000e+00
"M0:betaeff" 2.261989107535344e-03
"M0:cjd" 8.283159590640001e-17
"M0:cjs" 8.283159590640001e-17
"M0:cgg" 5.086824329816672e-17
"M0:cgd" -2.296387300001986e-17
"M0:cgs" -2.222422036619637e-17
"M0:cgb" -5.680149931950488e-18
"M0:cdg" -2.263318136339373e-17
"M0:cdd" 2.507164946440490e-17
"M0:cds" -2.402961133866089e-18
"M0:cdb" -3.550696714507828e-20
"M0:csg" -2.263318136339373e-17
"M0:csd" -9.208655963627846e-19
"M0:css" 2.358955392690159e-17
"M0:csb" -3.550696714507856e-20
"M0:cbg" -5.601880571379251e-18
"M0:cbd" -1.186910868022257e-18
"M0:cbs" 1.037627573160863e-18
"M0:cbb" 5.751163866240644e-18
"M0:covlgs" 2.236594741142121e-17
"M0:covlgd" 2.236594741142121e-17
"M0:covlgb" 0.000000000000000e+00
"M0:cggbo" 6.136348475324298e-18
"M0:cgdbo" -5.979255885986500e-19
"M0:cgsbo" 1.417270452248392e-19
"M0:cbgbo" -5.601880571379251e-18
"M0:cbdbo" -1.186910868022257e-18
"M0:cbsbo" 1.037627573160863e-18
"M0:cdgbo" -2.672339519725237e-19
"M0:cddbo" 2.705702052983691e-18
"M0:cdsbo" -2.402961133866089e-18
"M0:ron" 1.797693134862316e+308
"M0:id" -0.000000000000000e+00
"M0:ibulk" 1.836902539812669e-31
"M0:pwr" 0.000000000000000e+00
"M0:gmoverid" 0.000000000000000e+00
"M0:rdeff" 3.132220000000000e+00
"M0:rseff" 3.132220000000000e+00
"M0:rgbd" 0.000000000000000e+00
"M0:igidl" 0.000000000000000e+00
"M0:igisl" 0.000000000000000e+00
"M0:igdt" -1.836902539812669e-31
"M0:igd" 0.000000000000000e+00
"M0:igs" 0.000000000000000e+00
"M0:igb" -1.836902539812669e-31
"M0:igbacc" -1.836902539812669e-31
"M0:igbinv" -1.011064873733875e-48
"M0:igcs" 0.000000000000000e+00
"M0:igcd" 0.000000000000000e+00
"M0:gbs" 1.937484360653210e-11
"M0:gbd" 1.937484360653210e-11
"M0:b" 1.836902539812669e-31
"M0:d" 0.000000000000000e+00
"M0:g" -1.836902539812669e-31
"M0:s" 0.000000000000000e+00
"V0:p" 1.836902539812669e-31
"VG" 0.000000000000000e+00
"VGBIAS" 1.000000000000000e-02
"M0:region" 0
"M0:reversed" 0
"M0:ids" 2.659645782183405e-10
"M0:vgs" 1.000000000000000e-02
"M0:vds" 1.000000000000000e-02
"M0:vbs" 0.000000000000000e+00
"M0:vgd" 0.000000000000000e+00
"M0:vdb" 1.000000000000000e-02
"M0:vgb" 1.000000000000000e-02
"M0:vth" 4.629005892109291e-01
"M0:vdsat" 5.485885624025975e-02
"M0:gm" 6.529847126057376e-09
"M0:gds" 2.396988232538395e-08
"M0:gmbs" 8.544544428595418e-10
"M0:betaeff" 2.261295378738537e-03
"M0:cjd" 8.215492345135258e-17
"M0:cjs" 8.283159584908569e-17
"M0:cgg" 5.085783666699998e-17
"M0:cgd" -2.260477914528638e-17
"M0:cgs" -2.260542858217509e-17
"M0:cgb" -5.647628939538508e-18
"M0:cdg" -2.252270299770271e-17
"M0:cdd" 2.349916982361087e-17
"M0:cds" -9.557071866009142e-19
"M0:cdb" -2.075963930724521e-20
"M0:csg" -2.272236940534888e-17
"M0:csd" -3.981584617962591e-19
"M0:css" 2.316457972825314e-17
"M0:csb" -4.405186110800648e-20
"M0:cbg" -5.612764263948394e-18
"M0:cbd" -4.962322165282260e-19
"M0:cbs" 3.965560405228604e-19
"M0:cbb" 5.712440439953760e-18
"M0:covlgs" 2.238958355334324e-17
"M0:covlgd" 2.236594741343006e-17
"M0:covlgb" 0.000000000000000e+00
"M0:cggbo" 6.102305700226688e-18
"M0:cgdbo" -2.388317318563263e-19
"M0:cgsbo" -2.158450288318535e-19
"M0:cbgbo" -5.612764263948394e-18
"M0:cbdbo" -4.962322165282260e-19
"M0:cbsbo" 3.965560405228600e-19
"M0:cdgbo" -1.567555842726522e-19
"M0:cddbo" 1.133222410180811e-18
"M0:cdsbo" -9.557071866009140e-19
"M0:ron" 3.759898554959674e+07
"M0:id" 2.661469174154668e-10
"M0:ibulk" -1.858620508383625e-13
"M0:pwr" 2.661468730678801e-12
"M0:gmoverid" 2.455156686578306e+01
"M0:rdeff" 3.132220000000000e+00
"M0:rseff" 3.132220000000000e+00
"M0:rgbd" 0.000000000000000e+00
"M0:igidl" 0.000000000000000e+00
"M0:igisl" 0.000000000000000e+00
"M0:igdt" 2.899618406623436e-14
"M0:igd" 2.846886657338746e-21
"M0:igs" 2.193547950138367e-14
"M0:igb" 9.389224446232813e-19
"M0:igbacc" 9.389224446232813e-19
"M0:igbinv" 6.007999748219299e-36
"M0:igcs" 3.537866162205016e-15
"M0:igcd" 3.521896633314395e-15
"M0:gbs" 1.937484364148519e-11
"M0:gbd" 1.979889454216873e-11
"M0:b" -1.958620508378395e-13
"M0:d" 2.661669174129629e-10
"M0:g" 2.899618406623448e-14
"M0:s" -2.660000515461914e-10
"V0:p" -2.661959135970292e-10
"VG" 1.000000000000000e-02
"VGBIAS" 2.000000000000000e-02
"M0:region" 0
"M0:reversed" 0
"M0:ids" 6.148100832089548e-10
"M0:vgs" 2.000000000000000e-02
"M0:vds" 2.000000000000000e-02
"M0:vbs" 0.000000000000000e+00
"M0:vgd" 0.000000000000000e+00
"M0:vdb" 2.000000000000000e-02
"M0:vgb" 2.000000000000000e-02
"M0:vth" 4.623713018784285e-01
"M0:vdsat" 5.486470379844433e-02
"M0:gm" 1.507690520831540e-08
"M0:gds" 2.445740556934833e-08
"M0:gmbs" 1.967858578122405e-09
"M0:betaeff" 2.260604035309386e-03
"M0:cjd" 8.149990986509667e-17
"M0:cjs" 8.283159577391635e-17
"M0:cgg" 5.086353751793128e-17
"M0:cgd" -2.248221339839021e-17
"M0:cgs" -2.276783226386104e-17
"M0:cgb" -5.613491855680033e-18
"M0:cdg" -2.247252162121223e-17
"M0:cdd" 2.296655287305724e-17
"M0:cds" -4.799677096012108e-19
"M0:cdb" -1.406354224380136e-20
"M0:csg" -2.279358006605016e-17
"M0:csd" -2.222229536125941e-19
"M0:css" 2.306609274674488e-17
"M0:csb" -5.028972708212556e-20
"M0:cbg" -5.597435830668898e-18
"M0:cbd" -2.621165210544390e-19
"M0:cbs" 1.817072267173773e-19
"M0:cbb" 5.677845125005960e-18
"M0:covlgs" 2.241227346881785e-17
"M0:covlgd" 2.236594741606446e-17
"M0:covlgb" 0.000000000000000e+00
"M0:cggbo" 6.085316633048969e-18
"M0:cgdbo" -1.162659823257432e-19
"M0:cgsbo" -3.555587950431923e-19
"M0:cbgbo" -5.597435830668898e-18
"M0:cbdbo" -2.621165210544390e-19
"M0:cbsbo" 1.817072267173769e-19
"M0:cdgbo" -1.065742051477641e-19
"M0:cddbo" 6.006054569927763e-19
"M0:cdsbo" -4.799677096012108e-19
"M0:ron" 3.253036456838076e+07
"M0:id" 6.151781946866918e-10
"M0:ibulk" -3.760102141035669e-13
"M0:pwr" 1.230356152424027e-11
"M0:gmoverid" 2.452286587367377e+01
"M0:rdeff" 3.132220000000000e+00
"M0:rseff" 3.132220000000000e+00
"M0:rgbd" 0.000000000000000e+00
"M0:igidl" 0.000000000000000e+00
"M0:igisl" 0.000000000000000e+00
"M0:igdt" 4.441293674798269e-14
"M0:igd" 6.580293352659384e-21
"M0:igs" 2.852577119852175e-14
"M0:igb" 1.705069908655439e-18
"M0:igbacc" 1.705069908655439e-18
"M0:igbinv" 1.290138893281299e-35
"M0:igcs" 7.988464571061694e-15
"M0:igcd" 7.896989328197245e-15
"M0:gbs" 1.937484368732714e-11
"M0:gbd" 2.023213132714872e-11
"M0:b" -3.960102141024663e-13
"M0:d" 6.152181946809114e-10
"M0:g" 4.441293674798255e-14
"M0:s" -6.148665974035569e-10
"V0:p" -6.152626076176593e-10
"VG" 2.000000000000000e-02
"VGBIAS" 3.000000000000000e-02
"M0:region" 0
"M0:reversed" 0
"M0:ids" 1.062704391119130e-09
"M0:vgs" 3.000000000000000e-02
"M0:vds" 3.000000000000000e-02
"M0:vbs" 0.000000000000000e+00
"M0:vgd" 0.000000000000000e+00
"M0:vdb" 3.000000000000000e-02
"M0:vgb" 3.000000000000000e-02
"M0:vth" 4.618439926179972e-01
"M0:vdsat" 5.487165462200944e-02
"M0:gm" 2.601670658242832e-08
"M0:gds" 2.437572452080644e-08
"M0:gmbs" 3.388600069676694e-09
"M0:betaeff" 2.259915265658203e-03
"M0:cjd" 8.086541021899682e-17
"M0:cjs" 8.283159567740096e-17
"M0:cgg" 5.087522119106063e-17
"M0:cgd" -2.242736227954573e-17
"M0:cgs" -2.286900598590500e-17
"M0:cgb" -5.578852925609902e-18
"M0:cdg" -2.244531849742907e-17
"M0:cdd" 2.273216261470326e-17
"M0:cds" -2.764049873300267e-19
"M0:cdb" -1.043912994416248e-20
"M0:csg" -2.285954218795821e-17
"M0:csd" -1.458704765293128e-19
"M0:css" 2.306135156873422e-17
"M0:csb" -5.593890424669063e-20
"M0:cbg" -5.570360505673344e-18
"M0:cbd" -1.589298586282208e-19
"M0:cbs" 8.405940450080979e-20
"M0:cbb" 5.645230959800755e-18
"M0:covlgs" 2.243398431327622e-17
"M0:covlgd" 2.236594741944645e-17
"M0:covlgb" 0.000000000000000e+00
"M0:cggbo" 6.075289458337958e-18
"M0:cgdbo" -6.141486009927957e-20
"M0:cgsbo" -4.350216726287768e-19
"M0:cbgbo" -5.570360505673344e-18
"M0:cbdbo" -1.589298586282208e-19
"M0:cbsbo" 8.405940450080998e-20
"M0:cdgbo" -7.937107798262397e-20
"M0:cddbo" 3.662151952568132e-19
"M0:cdsbo" -2.764049873300267e-19
"M0:ron" 2.822985732553618e+07
"M0:id" 1.063261623283525e-09
"M0:ibulk" -5.705372950144195e-13
"M0:pwr" 3.189784161962896e-11
"M0:gmoverid" 2.448160259790611e+01
"M0:rdeff" 3.132220000000000e+00
"M0:rseff" 3.132220000000000e+00
"M0:rgbd" 0.000000000000000e+00
"M0:igidl" 0.000000000000000e+00
"M0:igisl" 0.000000000000000e+00
"M0:igdt" 8.066869361801989e-14
"M0:igd" 1.137314840349585e-20
"M0:igs" 5.382469603292419e-14
"M0:igb" 2.322305193793567e-18
"M0:igbacc" 2.322305193793567e-18
"M0:igbinv" 2.049010551441574e-35
"M0:igcs" 1.353892813415990e-14
"M0:igcd" 1.330273577259360e-14
"M0:gbs" 1.937484374618697e-11
"M0:gbd" 2.067473918229842e-11
"M0:b" -6.005372950127908e-13
"M0:d" 1.063321623273541e-09
"M0:g" 8.066869361802001e-14
"M0:s" -1.062801754672146e-09
"V0:p" -1.063402291967159e-09
"VG" 3.000000000000000e-02
"VGBIAS" 4.000000000000000e-02
"M0:region" 0
"M0:reversed" 0
"M0:ids" 1.631075647129429e-09
"M0:vgs" 4.000000000000000e-02
"M0:vds" 4.000000000000000e-02
"M0:vbs" 0.000000000000000e+00
"M0:vgd" 0.000000000000000e+00
"M0:vdb" 4.000000000000000e-02
"M0:vgb" 4.000000000000000e-02
"M0:vth" 4.613186605242510e-01
"M0:vdsat" 5.488002305692946e-02
"M0:gm" 3.982162417262311e-08
"M0:gds" 2.397652546450875e-08
"M0:gmbs" 5.180305785987911e-09
"M0:betaeff" 2.259229304875051e-03
"M0:cjd" 8.025036280890613e-17
"M0:cjs" 8.283159555491850e-17
"M0:cgg" 5.088748032911243e-17
"M0:cgd" -2.239811675945192e-17
"M0:cgs" -2.294531737609952e-17
"M0:cgb" -5.544046193560988e-18
"M0:cdg" -2.242882475839604e-17
"M0:cdd" 2.261110487211185e-17
"M0:cds" -1.740307429765828e-19
"M0:cdb" -8.249370739234900e-21
"M0:csg" -2.292455673379833e-17
"M0:csd" -1.074955807034196e-19
"M0:css" 2.309366227331157e-17
"M0:csb" -6.160995880981788e-20
"M0:cbg" -5.534098836918063e-18
"M0:cbd" -1.054925319565105e-19
"M0:cbs" 2.568584576453287e-20
"M0:cbb" 5.613905523110041e-18
"M0:covlgs" 2.245469336017856e-17
"M0:covlgd" 2.236594742373774e-17
"M0:covlgb" 0.000000000000000e+00
"M0:cggbo" 6.066839545196143e-18
"M0:cgdbo" -3.216933571418777e-20
"M0:cgsbo" -4.906240159209673e-19
"M0:cbgbo" -5.534098836918063e-18
"M0:cbdbo" -1.054925319565105e-19
"M0:cbsbo" 2.568584576453323e-20
"M0:cdgbo" -6.287733465830017e-20
"M0:cddbo" 2.451574483741179e-19
"M0:cdsbo" -1.740307429765828e-19
"M0:ron" 2.452368769619624e+07
"M0:id" 1.631825235501212e-09
"M0:ibulk" -7.695379653816042e-13
"M0:pwr" 6.527299274521431e-11
"M0:gmoverid" 2.441433310754543e+01
"M0:rdeff" 3.132220000000000e+00
"M0:rseff" 3.132220000000000e+00
"M0:rgbd" 0.000000000000000e+00
"M0:igidl" 0.000000000000000e+00
"M0:igisl" 0.000000000000000e+00
"M0:igdt" 1.564106489707548e-13
"M0:igd" 1.745464283382705e-20
"M0:igs" 1.160554360176324e-13
"M0:igb" 2.811221169846316e-18
"M0:igbacc" 2.811221169846316e-18
"M0:igbinv" 2.908404110863882e-35
"M0:igcs" 2.040571323960505e-14
"M0:igcd" 1.994667103770463e-14
"M0:gbs" 1.937484382088279e-11
"M0:gbd" 2.112690688353599e-11
"M0:b" -8.095379653795605e-13
"M0:d" 1.631905235485864e-09
"M0:g" 1.564106489707544e-13
"M0:s" -1.631252108169455e-09
"V0:p" -1.632061646134835e-09
"VG" 4.000000000000000e-02
"VGBIAS" 5.000000000000000e-02
"M0:region" 0
"M0:reversed" 0
"M0:ids" 2.351393764830452e-09
"M0:vgs" 5.000000000000000e-02
"M0:vds" 5.000000000000000e-02
"M0:vbs" 0.000000000000000e+00
"M0:vgd" 0.000000000000000e+00
"M0:vdb" 5.000000000000000e-02
"M0:vgb" 5.000000000000000e-02
"M0:vth" 4.607953045058559e-01
"M0:vdsat" 5.489021206772900e-02
"M0:gm" 5.723737624426819e-08
"M0:gds" 2.380012275508704e-08
"M0:gmbs" 7.436039027984869e-09
"M0:betaeff" 2.258546451551284e-03
"M0:cjd" 7.965378152952784e-17
"M0:cjs" 8.283159539968909e-17
"M0:cgg" 5.090521691337811e-17
"M0:cgd" -2.238034391906055e-17
"M0:cgs" -2.301573179499151e-17
"M0:cgb" -5.509141199326050e-18
"M0:cdg" -2.241810419540121e-17
"M0:cdd" 2.254143820047597e-17
"M0:cds" -1.165082223022644e-19
"M0:cdb" -6.825782772494712e-21
"M0:csg" -2.299125306908722e-17
"M0:csd" -8.648248721657168e-20
"M0:css" 2.314533970866963e-17
"M0:csb" -6.760415236584110e-20
"M0:cbg" -5.495859648889678e-18
"M0:cbd" -7.461179419885466e-20
"M0:cbs" -1.309969137585272e-20
"M0:cbb" 5.583571134464385e-18
"M0:covlgs" 2.247438780136200e-17
"M0:covlgd" 2.236594742917584e-17
"M0:covlgb" 0.000000000000000e+00
"M0:cggbo" 6.064881682840270e-18
"M0:cgdbo" -1.439648988470524e-20
"M0:cgsbo" -5.413439936295149e-19
"M0:cbgbo" -5.495859648889678e-18
"M0:cbdbo" -7.461179419885466e-20
"M0:cbsbo" -1.309969137585275e-20
"M0:cdgbo" -5.215676622537240e-20
"M0:cddbo" 1.754907713001316e-19
"M0:cdsbo" -1.165082223022644e-19
"M0:ron" 2.126397799190361e+07
"M0:id" 2.352338791155917e-09
"M0:ibulk" -9.731088004268127e-13
"M0:pwr" 1.176169049047904e-10
"M0:gmoverid" 2.434189334868603e+01
"M0:rdeff" 3.132220000000000e+00
"M0:rseff" 3.132220000000000e+00
"M0:rgbd" 0.000000000000000e+00
"M0:igidl" 0.000000000000000e+00
"M0:igisl" 0.000000000000000e+00
"M0:igdt" 2.678111359199488e-13
"M0:igd" 2.516137239870502e-20
"M0:igs" 2.108821126169738e-13
"M0:igb" 3.190332868328820e-18
"M0:igbacc" 3.190332868328820e-18
"M0:igbinv" 3.886911919291989e-35
"M0:igcs" 2.884668369032791e-14
"M0:igcd" 2.807912411840627e-14
"M0:gbs" 1.937484391554931e-11
"M0:gbd" 2.158882679170527e-11
"M0:b" -1.023108800424448e-12
"M0:d" 2.352438791133811e-09
"M0:g" 2.678111359199493e-13
"M0:s" -2.351683493469307e-09
"V0:p" -2.352706602269731e-09
"VG" 5.000000000000000e-02
"VGBIAS" 6.000000000000000e-02
"M0:region" 0
"M0:reversed" 0
"M0:ids" 3.270333856373903e-09
"M0:vgs" 6.000000000000000e-02
"M0:vds" 6.000000000000000e-02
"M0:vbs" 0.000000000000000e+00
"M0:vgd" 0.000000000000000e+00
"M0:vdb" 6.000000000000000e-02
"M0:vgb" 6.000000000000000e-02
"M0:vth" 4.602739232895643e-01
"M0:vdsat" 5.490273740602395e-02
"M0:gm" 7.934944731621278e-08
"M0:gds" 2.448867512120287e-08
"M0:gmbs" 1.029348199892312e-08
"M0:betaeff" 2.257867085292963e-03
"M0:cjd" 7.907474908598321e-17
"M0:cjs" 8.283159520165604e-17
"M0:cgg" 5.092873742976404e-17
"M0:cgd" -2.236829549579597e-17
"M0:cgs" -2.308634613936892e-17
"M0:cgb" -5.474095794599150e-18
"M0:cdg" -2.241077983866648e-17
"M0:cdd" 2.249809551744966e-17
"M0:cds" -8.146317256751676e-20
"M0:cdb" -5.852506215657442e-21
"M0:csg" -2.306117383379632e-17
"M0:csd" -7.451297518174539e-20
"M0:css" 2.320980725961614e-17
"M0:csb" -7.412045063807649e-20
"M0:cbg" -5.456783757301235e-18
"M0:cbd" -5.528704647194095e-20
"M0:cbs" -4.199794767970840e-20
"M0:cbb" 5.554068751452884e-18
"M0:covlgs" 2.249306429473361e-17
"M0:covlgd" 2.236594743611303e-17
"M0:covlgb" 0.000000000000000e+00
"M0:cggbo" 6.069725698917400e-18
"M0:cgdbo" -2.348059682939262e-21
"M0:cgsbo" -5.932818446353108e-19
"M0:cbgbo" -5.456783757301235e-18
"M0:cbdbo" -5.528704647194095e-20
"M0:cbsbo" -4.199794767970840e-20
"M0:cdgbo" -4.483240255345140e-20
"M0:cddbo" 1.321480813366256e-19
"M0:cdsbo" -8.146317256751676e-20
"M0:ron" 1.834674444351508e+07
"M0:id" 3.271477202434008e-09
"M0:ibulk" -1.181348314603044e-12
"M0:pwr" 1.962885651185977e-10
"M0:gmoverid" 2.426340881422860e+01
"M0:rdeff" 3.132220000000000e+00
"M0:rseff" 3.132220000000000e+00
"M0:rgbd" 0.000000000000000e+00
"M0:igidl" 0.000000000000000e+00
"M0:igisl" 0.000000000000000e+00
"M0:igdt" 4.139667954858651e-13
"M0:igd" 3.499256464651705e-20
"M0:igs" 3.367976092394195e-13
"M0:igb" 3.475958436793448e-18
"M0:igbacc" 3.475958436793448e-18
"M0:igbinv" 4.927476779254321e-35
"M0:igcs" 3.916711999493094e-14
"M0:igcd" 3.799855530051326e-14
"M0:gbs" 1.937484403631960e-11
"M0:gbd" 2.206069489219709e-11
"M0:b" -1.241348314600451e-12
"M0:d" 3.271597202403247e-09
"M0:g" 4.139667954858661e-13
"M0:s" -3.270769820884132e-09
"V0:p" -3.272011169198733e-09
"VG" 6.000000000000000e-02
"VGBIAS" 7.000000000000001e-02
"M0:region" 0
